T43C8 000:041.577   SEGGER J-Link V7.82a Log File
T43C8 000:041.702   DLL Compiled: Oct 31 2022 11:15:01
T43C8 000:041.710   Logging started @ 2022-12-09 03:23
T43C8 000:041.717 - 41.721ms
T43C8 000:041.730 JLINK_SetWarnOutHandler(...)
T43C8 000:041.739 - 0.012ms
T43C8 000:041.747 JLINK_OpenEx(...)
T43C8 000:043.332   Firmware: J-Link V9 compiled May  7 2021 16:26:12
T43C8 000:043.558   Firmware: J-Link V9 compiled May  7 2021 16:26:12
T43C8 000:043.690   Decompressing FW timestamp took 91 us
T43C8 000:049.092   Hardware: V9.20
T43C8 000:049.122   S/N: 4294967295
T43C8 000:049.135   OEM: SEGGER
T43C8 000:049.148   Feature(s): RDI, FlashBP, FlashDL, JFlash, GDB
T43C8 000:049.944   TELNET listener socket opened on port 19021
T43C8 000:050.197   WEBSRV WEBSRV_Init(): Starting webserver thread(s)
T43C8 000:050.428   WEBSRV Webserver running on local port 19080
T43C8 000:060.981 - 19.245ms returns "O.K."
T43C8 000:061.015 JLINK_GetEmuCaps()
T43C8 000:061.023 - 0.011ms returns 0xB9FF7BBF
T43C8 000:061.034 JLINK_TIF_GetAvailable(...)
T43C8 000:061.133 - 0.108ms
T43C8 000:061.150 JLINK_SetErrorOutHandler(...)
T43C8 000:061.158 - 0.011ms
T43C8 000:061.194 JLINK_ExecCommand("ProjectFile = "D:\STM32\My Project\Remote-controled-AGV-robot-with-machine-arm\Smart_car_controller_f103c6\USER\JLinkSettings.ini"", ...). 
T43C8 000:069.828   Ref file found at: C:\Keil_v5\ARM\Segger\JLinkDevices.ref
T43C8 000:069.982   REF file references invalid XML file: D:\STM32jlik\JLinkDevices.xml
T43C8 000:070.399 - 9.212ms returns 0x00
T43C8 000:070.435 JLINK_ExecCommand("Device = STM32F103C6", ...). 
T43C8 000:070.621   Device "STM32F103C6" selected.
T43C8 000:070.994 - 0.556ms returns 0x00
T43C8 000:071.007 JLINK_ExecCommand("DisableConnectionTimeout", ...). 
T43C8 000:071.018 - 0.005ms returns 0x01
T43C8 000:071.026 JLINK_GetHardwareVersion()
T43C8 000:071.034 - 0.010ms returns 92000
T43C8 000:071.045 JLINK_GetDLLVersion()
T43C8 000:071.052 - 0.010ms returns 78201
T43C8 000:071.060 JLINK_GetOEMString(...)
T43C8 000:071.068 JLINK_GetFirmwareString(...)
T43C8 000:071.075 - 0.010ms
T43C8 000:071.095 JLINK_GetDLLVersion()
T43C8 000:071.102 - 0.010ms returns 78201
T43C8 000:071.110 JLINK_GetCompileDateTime()
T43C8 000:071.117 - 0.010ms
T43C8 000:071.129 JLINK_GetFirmwareString(...)
T43C8 000:071.136 - 0.010ms
T43C8 000:071.146 JLINK_GetHardwareVersion()
T43C8 000:071.153 - 0.010ms returns 92000
T43C8 000:071.164 JLINK_GetSN()
T43C8 000:071.172 - 0.011ms returns -1
T43C8 000:071.180 JLINK_GetOEMString(...)
T43C8 000:071.194 JLINK_TIF_Select(JLINKARM_TIF_SWD)
T43C8 000:071.554 - 0.370ms returns 0x00
T43C8 000:071.573 JLINK_HasError()
T43C8 000:071.597 JLINK_SetSpeed(5000)
T43C8 000:071.651 - 0.059ms
T43C8 000:071.664 JLINK_GetId()
T43C8 000:071.787   InitTarget() start
T43C8 000:071.800    J-Link Script File: Executing InitTarget()
T43C8 000:075.553   InitTarget() end
T43C8 000:075.907   Found SW-DP with ID 0x1BA01477
T43C8 000:077.175   DPIDR: 0x1BA01477
T43C8 000:077.192   CoreSight SoC-400 or earlier
T43C8 000:077.206   Scanning AP map to find all available APs
T43C8 000:077.610   AP[1]: Stopped AP scan as end of AP map has been reached
T43C8 000:077.625   AP[0]: AHB-AP (IDR: 0x14770011)
T43C8 000:077.639   Iterating through AP map to find AHB-AP to use
T43C8 000:078.185   AP[0]: Core found
T43C8 000:078.202   AP[0]: AHB-AP ROM base: 0xE00FF000
T43C8 000:078.562   CPUID register: 0x411FC231. Implementer code: 0x41 (ARM)
T43C8 000:078.591   Found Cortex-M3 r1p1, Little endian.
T43C8 000:078.784   -- Max. mem block: 0x00010E40
T43C8 000:078.888   CPU_ReadMem(4 bytes @ 0xE000EDF0)
T43C8 000:079.142   CPU_ReadMem(4 bytes @ 0xE0002000)
T43C8 000:079.338   FPUnit: 6 code (BP) slots and 2 literal slots
T43C8 000:079.350   CPU_ReadMem(4 bytes @ 0xE000EDFC)
T43C8 000:079.544   CPU_WriteMem(4 bytes @ 0xE000EDFC)
T43C8 000:079.751   CPU_ReadMem(4 bytes @ 0xE0001000)
T43C8 000:079.947   CPU_WriteMem(4 bytes @ 0xE0001000)
T43C8 000:080.141   CPU_ReadMem(4 bytes @ 0xE000ED88)
T43C8 000:080.327   CPU_WriteMem(4 bytes @ 0xE000ED88)
T43C8 000:080.571   CPU_ReadMem(4 bytes @ 0xE000ED88)
T43C8 000:080.760   CPU_WriteMem(4 bytes @ 0xE000ED88)
T43C8 000:080.961   CoreSight components:
T43C8 000:080.984   ROMTbl[0] @ E00FF000
T43C8 000:080.996   CPU_ReadMem(64 bytes @ 0xE00FF000)
T43C8 000:081.425   CPU_ReadMem(32 bytes @ 0xE000EFE0)
T43C8 000:081.731   [0][0]: E000E000 CID B105E00D PID 001BB000 SCS
T43C8 000:081.743   CPU_ReadMem(32 bytes @ 0xE0001FE0)
T43C8 000:082.041   [0][1]: E0001000 CID B105E00D PID 001BB002 DWT
T43C8 000:082.053   CPU_ReadMem(32 bytes @ 0xE0002FE0)
T43C8 000:082.355   [0][2]: E0002000 CID B105E00D PID 000BB003 FPB
T43C8 000:082.367   CPU_ReadMem(32 bytes @ 0xE0000FE0)
T43C8 000:082.671   [0][3]: E0000000 CID B105E00D PID 001BB001 ITM
T43C8 000:082.683   CPU_ReadMem(32 bytes @ 0xE0040FE0)
T43C8 000:082.984   [0][4]: E0040000 CID B105900D PID 001BB923 TPIU-Lite
T43C8 000:083.153 - 11.495ms returns 0x1BA01477
T43C8 000:083.167 JLINK_GetDLLVersion()
T43C8 000:083.175 - 0.013ms returns 78201
T43C8 000:083.185 JLINK_CORE_GetFound()
T43C8 000:083.194 - 0.013ms returns 0x30000FF
T43C8 000:083.204 JLINK_GetDebugInfo(0x100 = JLINKARM_ROM_TABLE_ADDR_INDEX)
T43C8 000:083.218   Value=0xE00FF000
T43C8 000:083.230 - 0.030ms returns 0
T43C8 000:083.247 JLINK_GetDebugInfo(0x100 = JLINKARM_ROM_TABLE_ADDR_INDEX)
T43C8 000:083.256   Value=0xE00FF000
T43C8 000:083.269 - 0.026ms returns 0
T43C8 000:083.278 JLINK_GetDebugInfo(0x101 = JLINKARM_DEBUG_INFO_ETM_ADDR_INDEX)
T43C8 000:083.287   Value=0x00000000
T43C8 000:083.299 - 0.025ms returns 0
T43C8 000:083.313 JLINK_ReadMemEx(0xE0041FF0, 0x10 Bytes, Flags = 0x02000004)
T43C8 000:083.340   CPU_ReadMem(16 bytes @ 0xE0041FF0)
T43C8 000:083.597   Data:  00 00 00 00 00 00 00 00 00 00 00 00 00 00 00 00
T43C8 000:083.613 - 0.304ms returns 16 (0x10)
T43C8 000:083.625 JLINK_GetDebugInfo(0x102 = JLINKARM_DEBUG_INFO_MTB_ADDR_INDEX)
T43C8 000:083.634   Value=0x00000000
T43C8 000:083.647 - 0.026ms returns 0
T43C8 000:083.657 JLINK_GetDebugInfo(0x103 = JLINKARM_DEBUG_INFO_TPIU_ADDR_INDEX)
T43C8 000:083.666   Value=0xE0040000
T43C8 000:083.679 - 0.026ms returns 0
T43C8 000:083.689 JLINK_GetDebugInfo(0x104 = JLINKARM_DEBUG_INFO_ITM_ADDR_INDEX)
T43C8 000:083.697   Value=0xE0000000
T43C8 000:083.710 - 0.025ms returns 0
T43C8 000:083.720 JLINK_GetDebugInfo(0x105 = JLINKARM_DEBUG_INFO_DWT_ADDR_INDEX)
T43C8 000:083.729   Value=0xE0001000
T43C8 000:083.741 - 0.025ms returns 0
T43C8 000:083.751 JLINK_GetDebugInfo(0x106 = JLINKARM_DEBUG_INFO_FPB_ADDR_INDEX)
T43C8 000:083.760   Value=0xE0002000
T43C8 000:083.773 - 0.025ms returns 0
T43C8 000:083.782 JLINK_GetDebugInfo(0x107 = JLINKARM_DEBUG_INFO_NVIC_ADDR_INDEX)
T43C8 000:083.791   Value=0xE000E000
T43C8 000:083.804 - 0.025ms returns 0
T43C8 000:083.813 JLINK_GetDebugInfo(0x10C = JLINKARM_DEBUG_INFO_DBG_ADDR_INDEX)
T43C8 000:083.820   Value=0xE000EDF0
T43C8 000:083.830 - 0.021ms returns 0
T43C8 000:083.838 JLINK_GetDebugInfo(0x01 = Unknown)
T43C8 000:083.849   Value=0x00000000
T43C8 000:083.860 - 0.025ms returns 0
T43C8 000:083.868 JLINK_ReadMemU32(0xE000ED00, 0x1 Items)
T43C8 000:083.878   CPU_ReadMem(4 bytes @ 0xE000ED00)
T43C8 000:084.077   Data:  31 C2 1F 41
T43C8 000:084.091   Debug reg: CPUID
T43C8 000:084.102 - 0.237ms returns 1 (0x1)
T43C8 000:084.111 JLINK_GetDebugInfo(0x10F = JLINKARM_DEBUG_INFO_HAS_CORTEX_M_SECURITY_EXT_INDEX)
T43C8 000:084.119   Value=0x00000000
T43C8 000:084.129 - 0.021ms returns 0
T43C8 000:084.138 JLINK_HasError()
T43C8 000:084.146 JLINK_SetResetType(JLINKARM_CM3_RESET_TYPE_NORMAL)
T43C8 000:084.154 - 0.011ms returns JLINKARM_CM3_RESET_TYPE_NORMAL
T43C8 000:084.162 JLINK_Reset()
T43C8 000:084.184   CPU is running
T43C8 000:084.196   CPU_WriteMem(4 bytes @ 0xE000EDF0)
T43C8 000:084.453   CPU is running
T43C8 000:084.473   CPU_WriteMem(4 bytes @ 0xE000EDFC)
T43C8 000:084.689   Reset: Halt core after reset via DEMCR.VC_CORERESET.
T43C8 000:084.929   Reset: Reset device via AIRCR.SYSRESETREQ.
T43C8 000:084.945   CPU is running
T43C8 000:084.957   CPU_WriteMem(4 bytes @ 0xE000ED0C)
T43C8 000:136.826   CPU_ReadMem(4 bytes @ 0xE000EDF0)
T43C8 000:137.040   CPU_ReadMem(4 bytes @ 0xE000EDF0)
T43C8 000:137.311   CPU is running
T43C8 000:137.331   CPU_WriteMem(4 bytes @ 0xE000EDF0)
T43C8 000:137.602   CPU is running
T43C8 000:137.625   CPU_WriteMem(4 bytes @ 0xE000EDFC)
T43C8 000:143.587   CPU_ReadMem(4 bytes @ 0xE000EDF0)
T43C8 000:145.521   CPU_WriteMem(4 bytes @ 0xE0002000)
T43C8 000:145.730   CPU_ReadMem(4 bytes @ 0xE000EDFC)
T43C8 000:145.918   CPU_ReadMem(4 bytes @ 0xE0001000)
T43C8 000:146.108 - 61.951ms
T43C8 000:146.123 JLINK_HasError()
T43C8 000:146.134 JLINK_ReadReg(R15 (PC))
T43C8 000:146.149 - 0.018ms returns 0x080001CC
T43C8 000:146.158 JLINK_ReadReg(XPSR)
T43C8 000:146.166 - 0.011ms returns 0x01000000
T43C8 000:146.176 JLINK_Halt()
T43C8 000:146.183 - 0.011ms returns 0x00
T43C8 000:146.192 JLINK_ReadMemU32(0xE000EDF0, 0x1 Items)
T43C8 000:146.204   CPU_ReadMem(4 bytes @ 0xE000EDF0)
T43C8 000:146.387   Data:  03 00 03 00
T43C8 000:146.399   Debug reg: DHCSR
T43C8 000:146.410 - 0.220ms returns 1 (0x1)
T43C8 000:146.448 JLINK_WriteU32_64(0xE000EDF0, 0xA05F0003)
T43C8 000:146.458   Debug reg: DHCSR
T43C8 000:146.664   CPU_WriteMem(4 bytes @ 0xE000EDF0)
T43C8 000:146.870 - 0.426ms returns 0 (0x00000000)
T43C8 000:146.880 JLINK_WriteU32_64(0xE000EDFC, 0x01000000)
T43C8 000:146.888   Debug reg: DEMCR
T43C8 000:146.901   CPU_WriteMem(4 bytes @ 0xE000EDFC)
T43C8 000:147.094 - 0.218ms returns 0 (0x00000000)
T43C8 000:147.132 JLINK_GetHWStatus(...)
T43C8 000:147.216 - 0.088ms returns 0
T43C8 000:147.237 JLINK_GetNumBPUnits(Type = 0xFFFFFF00)
T43C8 000:147.245 - 0.011ms returns 0x06
T43C8 000:147.253 JLINK_GetNumBPUnits(Type = 0xF0)
T43C8 000:147.260 - 0.010ms returns 0x2000
T43C8 000:147.268 JLINK_GetNumWPUnits()
T43C8 000:147.276 - 0.010ms returns 4
T43C8 000:147.290 JLINK_GetSpeed()
T43C8 000:147.297 - 0.010ms returns 4000
T43C8 000:147.309 JLINK_ReadMemU32(0xE000E004, 0x1 Items)
T43C8 000:147.319   CPU_ReadMem(4 bytes @ 0xE000E004)
T43C8 000:147.501   Data:  01 00 00 00
T43C8 000:147.512 - 0.206ms returns 1 (0x1)
T43C8 000:147.521 JLINK_ReadMemU32(0xE000E004, 0x1 Items)
T43C8 000:147.530   CPU_ReadMem(4 bytes @ 0xE000E004)
T43C8 000:147.716   Data:  01 00 00 00
T43C8 000:147.736 - 0.219ms returns 1 (0x1)
T43C8 000:147.748 JLINK_WriteMemEx(0xE0001000, 0x0000001C Bytes, Flags = 0x02000004)
T43C8 000:147.758   Data:  01 00 00 00 00 00 00 00 00 00 00 00 00 00 00 00 ...
T43C8 000:147.776   CPU_WriteMem(28 bytes @ 0xE0001000)
T43C8 000:148.067 - 0.327ms returns 0x1C
T43C8 000:148.083 JLINK_HasError()
T43C8 000:148.092 JLINK_ReadReg(R15 (PC))
T43C8 000:148.102 - 0.013ms returns 0x080001CC
T43C8 000:148.110 JLINK_ReadReg(XPSR)
T43C8 000:148.118 - 0.011ms returns 0x01000000
T43C8 000:157.375 JLINK_ReadMemEx(0xE0001004, 0x4 Bytes, Flags = 0x02000000)
T43C8 000:157.393   Data:  00 00 00 00
T43C8 000:157.404   Debug reg: DWT_CYCCNT
T43C8 000:157.415 - 0.043ms returns 4 (0x4)
T43C8 000:238.588 JLINK_HasError()
T43C8 000:238.614 JLINK_SetResetType(JLINKARM_CM3_RESET_TYPE_NORMAL)
T43C8 000:238.622 - 0.012ms returns JLINKARM_CM3_RESET_TYPE_NORMAL
T43C8 000:238.631 JLINK_Reset()
T43C8 000:238.650   CPU_WriteMem(4 bytes @ 0xE000EDF0)
T43C8 000:238.879   CPU_WriteMem(4 bytes @ 0xE000EDFC)
T43C8 000:239.103   Reset: Halt core after reset via DEMCR.VC_CORERESET.
T43C8 000:239.381   Reset: Reset device via AIRCR.SYSRESETREQ.
T43C8 000:239.399   CPU_WriteMem(4 bytes @ 0xE000ED0C)
T43C8 000:291.959   CPU_ReadMem(4 bytes @ 0xE000EDF0)
T43C8 000:292.155   CPU_ReadMem(4 bytes @ 0xE000EDF0)
T43C8 000:292.340   CPU_WriteMem(4 bytes @ 0xE000EDF0)
T43C8 000:292.542   CPU_WriteMem(4 bytes @ 0xE000EDFC)
T43C8 000:298.730   CPU_ReadMem(4 bytes @ 0xE000EDF0)
T43C8 000:300.667   CPU_WriteMem(4 bytes @ 0xE0002000)
T43C8 000:300.875   CPU_ReadMem(4 bytes @ 0xE000EDFC)
T43C8 000:301.065   CPU_ReadMem(4 bytes @ 0xE0001000)
T43C8 000:301.306 - 62.680ms
T43C8 000:301.356 JLINK_HasError()
T43C8 000:301.369 JLINK_ReadReg(R15 (PC))
T43C8 000:301.384 - 0.021ms returns 0x080001CC
T43C8 000:301.397 JLINK_ReadReg(XPSR)
T43C8 000:301.406 - 0.013ms returns 0x01000000
T43C8 000:302.609 JLINK_ReadMemEx(0x080001CC, 0x3C Bytes, Flags = 0x02000000)
T43C8 000:302.632   CPU_ReadMem(128 bytes @ 0x080001C0)
T43C8 000:303.412    -- Updating C cache (128 bytes @ 0x080001C0)
T43C8 000:303.430    -- Read from C cache (60 bytes @ 0x080001CC)
T43C8 000:303.442   Data:  09 48 80 47 09 48 00 47 FE E7 FE E7 FE E7 FE E7 ...
T43C8 000:303.452 - 0.846ms returns 60 (0x3C)
T43C8 000:303.462 JLINK_ReadMemEx(0x080001CC, 0x2 Bytes, Flags = 0x02000000)
T43C8 000:303.470    -- Read from C cache (2 bytes @ 0x080001CC)
T43C8 000:303.481   Data:  09 48
T43C8 000:303.492 - 0.033ms returns 2 (0x2)
T43C8 000:303.547 JLINK_ReadMemEx(0x080001CE, 0x2 Bytes, Flags = 0x02000000)
T43C8 000:303.555    -- Read from C cache (2 bytes @ 0x080001CE)
T43C8 000:303.566   Data:  80 47
T43C8 000:303.576 - 0.033ms returns 2 (0x2)
T43C8 000:303.592 JLINK_ReadMemEx(0x080001CE, 0x2 Bytes, Flags = 0x02000000)
T43C8 000:303.600    -- Read from C cache (2 bytes @ 0x080001CE)
T43C8 000:303.610   Data:  80 47
T43C8 000:303.620 - 0.032ms returns 2 (0x2)
T43C8 000:303.629 JLINK_ReadMemEx(0x080001D0, 0x3C Bytes, Flags = 0x02000000)
T43C8 000:303.636    -- Read from C cache (60 bytes @ 0x080001D0)
T43C8 000:303.647   Data:  09 48 00 47 FE E7 FE E7 FE E7 FE E7 FE E7 FE E7 ...
T43C8 000:303.657 - 0.032ms returns 60 (0x3C)
T43C8 000:303.665 JLINK_ReadMemEx(0x080001D0, 0x2 Bytes, Flags = 0x02000000)
T43C8 000:303.673    -- Read from C cache (2 bytes @ 0x080001D0)
T43C8 000:303.683   Data:  09 48
T43C8 000:303.693 - 0.031ms returns 2 (0x2)
T43C8 000:438.048 JLINK_ReadMemEx(0x40010800, 0xC Bytes, Flags = 0x02000004)
T43C8 000:438.090   CPU_ReadMem(12 bytes @ 0x40010800)
T43C8 000:438.353   Data:  44 44 44 44 44 44 84 88 00 00 00 00
T43C8 000:438.372 - 0.328ms returns 12 (0xC)
T43C8 000:438.385 JLINK_ReadMemEx(0x4001080C, 0x4 Bytes, Flags = 0x02000004)
T43C8 000:438.397   CPU_ReadMem(4 bytes @ 0x4001080C)
T43C8 000:438.600   Data:  00 A0 00 00
T43C8 000:438.617 - 0.236ms returns 4 (0x4)
T43C8 000:438.628 JLINK_ReadMemEx(0x40010818, 0x4 Bytes, Flags = 0x02000004)
T43C8 000:438.639   CPU_ReadMem(4 bytes @ 0x40010818)
T43C8 000:438.831   Data:  00 00 00 00
T43C8 000:438.842 - 0.217ms returns 4 (0x4)
T43C8 000:487.300 JLINK_ReadMemEx(0x40000800, 0x10 Bytes, Flags = 0x02000004)
T43C8 000:487.337   CPU_ReadMem(16 bytes @ 0x40000800)
T43C8 000:487.632   Data:  00 00 00 00 00 00 00 00 00 00 00 00 00 00 00 00
T43C8 000:487.650 - 0.354ms returns 16 (0x10)
T43C8 000:487.662 JLINK_ReadMemEx(0x40000810, 0x4 Bytes, Flags = 0x02000004)
T43C8 000:487.675   CPU_ReadMem(4 bytes @ 0x40000810)
T43C8 000:487.873   Data:  00 00 00 00
T43C8 000:487.896 - 0.238ms returns 4 (0x4)
T43C8 000:487.910 JLINK_ReadMemEx(0x40000818, 0x14 Bytes, Flags = 0x02000004)
T43C8 000:487.923   CPU_ReadMem(20 bytes @ 0x40000818)
T43C8 000:488.197   Data:  00 00 00 00 00 00 00 00 00 00 00 00 00 00 00 00 ...
T43C8 000:488.214 - 0.308ms returns 20 (0x14)
T43C8 000:488.226 JLINK_ReadMemEx(0x4000082C, 0x4 Bytes, Flags = 0x02000004)
T43C8 000:488.238   CPU_ReadMem(4 bytes @ 0x4000082C)
T43C8 000:488.476   Data:  00 00 00 00
T43C8 000:488.490 - 0.267ms returns 4 (0x4)
T43C8 000:488.501 JLINK_ReadMemEx(0x40000834, 0xC Bytes, Flags = 0x02000004)
T43C8 000:488.512   CPU_ReadMem(12 bytes @ 0x40000834)
T43C8 000:488.744   Data:  00 00 00 00 00 00 00 00 00 00 00 00
T43C8 000:488.755 - 0.257ms returns 12 (0xC)
T43C8 000:488.764 JLINK_ReadMemEx(0x40000840, 0x4 Bytes, Flags = 0x02000004)
T43C8 000:488.773   CPU_ReadMem(4 bytes @ 0x40000840)
T43C8 000:488.955   Data:  00 00 00 00
T43C8 000:488.967 - 0.206ms returns 4 (0x4)
T43C8 000:488.977 JLINK_ReadMemEx(0x40000848, 0x4 Bytes, Flags = 0x02000004)
T43C8 000:488.986   CPU_ReadMem(4 bytes @ 0x40000848)
T43C8 000:489.167   Data:  00 00 00 00
T43C8 000:489.179 - 0.205ms returns 4 (0x4)
T43C8 000:489.188 JLINK_ReadMemEx(0x4000084C, 0x4 Bytes, Flags = 0x02000004)
T43C8 000:489.251   CPU_ReadMem(4 bytes @ 0x4000084C)
T43C8 000:489.438   Data:  00 00 00 00
T43C8 000:489.450 - 0.265ms returns 4 (0x4)
T43C8 000:534.885 JLINK_ReadMemEx(0x40013800, 0x18 Bytes, Flags = 0x02000004)
T43C8 000:534.919   CPU_ReadMem(24 bytes @ 0x40013800)
T43C8 000:535.222   Data:  00 00 00 00 00 00 00 00 00 00 00 00 00 00 00 00 ...
T43C8 000:535.239 - 0.358ms returns 24 (0x18)
T43C8 000:535.251 JLINK_ReadMemEx(0x40013818, 0x4 Bytes, Flags = 0x02000004)
T43C8 000:535.262   CPU_ReadMem(4 bytes @ 0x40013818)
T43C8 000:535.457   Data:  00 00 00 00
T43C8 000:535.470 - 0.222ms returns 4 (0x4)
T43C8 001:562.419 JLINK_ReadMemEx(0x080001CC, 0x3C Bytes, Flags = 0x02000000)
T43C8 001:562.453    -- Read from C cache (60 bytes @ 0x080001CC)
T43C8 001:562.466   Data:  09 48 80 47 09 48 00 47 FE E7 FE E7 FE E7 FE E7 ...
T43C8 001:562.476 - 0.061ms returns 60 (0x3C)
T43C8 001:562.485 JLINK_ReadMemEx(0x080001CC, 0x2 Bytes, Flags = 0x02000000)
T43C8 001:562.493    -- Read from C cache (2 bytes @ 0x080001CC)
T43C8 001:562.504   Data:  09 48
T43C8 001:562.515 - 0.033ms returns 2 (0x2)
T43C8 001:562.523 JLINK_ReadMemEx(0x080001CE, 0x2 Bytes, Flags = 0x02000000)
T43C8 001:562.531    -- Read from C cache (2 bytes @ 0x080001CE)
T43C8 001:562.541   Data:  80 47
T43C8 001:562.552 - 0.031ms returns 2 (0x2)
T43C8 001:562.566 JLINK_ReadMemEx(0x080001CE, 0x2 Bytes, Flags = 0x02000000)
T43C8 001:562.574    -- Read from C cache (2 bytes @ 0x080001CE)
T43C8 001:562.584   Data:  80 47
T43C8 001:562.594 - 0.032ms returns 2 (0x2)
T43C8 001:562.603 JLINK_ReadMemEx(0x080001D0, 0x3C Bytes, Flags = 0x02000000)
T43C8 001:562.610    -- Read from C cache (60 bytes @ 0x080001D0)
T43C8 001:562.621   Data:  09 48 00 47 FE E7 FE E7 FE E7 FE E7 FE E7 FE E7 ...
T43C8 001:562.631 - 0.032ms returns 60 (0x3C)
T43C8 001:562.639 JLINK_ReadMemEx(0x080001D0, 0x2 Bytes, Flags = 0x02000000)
T43C8 001:562.647    -- Read from C cache (2 bytes @ 0x080001D0)
T43C8 001:562.657   Data:  09 48
T43C8 001:562.667 - 0.031ms returns 2 (0x2)
T43C8 001:562.677 JLINK_ReadMemEx(0x080001D0, 0x3C Bytes, Flags = 0x02000000)
T43C8 001:562.685    -- Read from C cache (60 bytes @ 0x080001D0)
T43C8 001:562.695   Data:  09 48 00 47 FE E7 FE E7 FE E7 FE E7 FE E7 FE E7 ...
T43C8 001:562.706 - 0.032ms returns 60 (0x3C)
T43C8 001:562.714 JLINK_ReadMemEx(0x080001D0, 0x2 Bytes, Flags = 0x02000000)
T43C8 001:562.721    -- Read from C cache (2 bytes @ 0x080001D0)
T43C8 001:562.731   Data:  09 48
T43C8 001:562.742 - 0.031ms returns 2 (0x2)
T43C8 001:562.750 JLINK_ReadMemEx(0x080001D2, 0x2 Bytes, Flags = 0x02000000)
T43C8 001:562.757    -- Read from C cache (2 bytes @ 0x080001D2)
T43C8 001:562.767   Data:  00 47
T43C8 001:562.778 - 0.031ms returns 2 (0x2)
T43C8 002:561.464 JLINK_HasError()
T43C8 002:561.490 JLINK_ReadReg(R0)
T43C8 002:561.708 - 0.228ms returns 0x00000001
T43C8 002:561.727 JLINK_ReadReg(R1)
T43C8 002:561.736 - 0.013ms returns 0x00000007
T43C8 002:561.746 JLINK_ReadReg(R2)
T43C8 002:561.755 - 0.013ms returns 0x00000000
T43C8 002:561.765 JLINK_ReadReg(R3)
T43C8 002:561.773 - 0.012ms returns 0xE000E000
T43C8 002:561.784 JLINK_ReadReg(R4)
T43C8 002:561.798 - 0.019ms returns 0x00000000
T43C8 002:561.810 JLINK_ReadReg(R5)
T43C8 002:561.819 - 0.013ms returns 0x2000003C
T43C8 002:561.828 JLINK_ReadReg(R6)
T43C8 002:561.837 - 0.012ms returns 0x00000000
T43C8 002:561.847 JLINK_ReadReg(R7)
T43C8 002:561.855 - 0.012ms returns 0x00000000
T43C8 002:561.865 JLINK_ReadReg(R8)
T43C8 002:561.884 - 0.024ms returns 0x00000000
T43C8 002:561.894 JLINK_ReadReg(R9)
T43C8 002:561.903 - 0.012ms returns 0x20000160
T43C8 002:561.912 JLINK_ReadReg(R10)
T43C8 002:561.921 - 0.013ms returns 0x08000B48
T43C8 002:561.931 JLINK_ReadReg(R11)
T43C8 002:561.939 - 0.012ms returns 0x00000000
T43C8 002:561.949 JLINK_ReadReg(R12)
T43C8 002:561.957 - 0.012ms returns 0x000000FF
T43C8 002:561.967 JLINK_ReadReg(R13 (SP))
T43C8 002:561.975 - 0.013ms returns 0x200006A0
T43C8 002:561.985 JLINK_ReadReg(R14)
T43C8 002:561.993 - 0.012ms returns 0xFFFFFFFF
T43C8 002:562.006 JLINK_ReadReg(R15 (PC))
T43C8 002:562.016 - 0.014ms returns 0x080001CC
T43C8 002:562.026 JLINK_ReadReg(XPSR)
T43C8 002:562.035 - 0.013ms returns 0x01000000
T43C8 002:562.044 JLINK_ReadReg(MSP)
T43C8 002:562.053 - 0.012ms returns 0x200006A0
T43C8 002:562.062 JLINK_ReadReg(PSP)
T43C8 002:562.071 - 0.012ms returns 0x20001000
T43C8 002:562.080 JLINK_ReadReg(CFBP)
T43C8 002:562.089 - 0.012ms returns 0x00000000
T43C8 006:585.749 JLINK_ReadMemEx(0x20000008, 0x4 Bytes, Flags = 0x02000000)
T43C8 006:585.789   CPU_ReadMem(64 bytes @ 0x20000000)
T43C8 006:586.311    -- Updating C cache (64 bytes @ 0x20000000)
T43C8 006:586.324    -- Read from C cache (4 bytes @ 0x20000008)
T43C8 006:586.335   Data:  06 00 00 00
T43C8 006:586.346 - 0.601ms returns 4 (0x4)
T43C8 006:586.453 JLINK_ReadMemEx(0x20000008, 0x4 Bytes, Flags = 0x02000000)
T43C8 006:586.470    -- Read from C cache (4 bytes @ 0x20000008)
T43C8 006:586.482   Data:  06 00 00 00
T43C8 006:586.492 - 0.043ms returns 4 (0x4)
T43C8 006:586.510 JLINK_ReadMemEx(0x20000008, 0x4 Bytes, Flags = 0x02000000)
T43C8 006:586.519    -- Read from C cache (4 bytes @ 0x20000008)
T43C8 006:586.530   Data:  06 00 00 00
T43C8 006:586.540 - 0.033ms returns 4 (0x4)
T43C8 006:605.549 JLINK_ReadMemEx(0x20000008, 0x4 Bytes, Flags = 0x02000000)
T43C8 006:605.575    -- Read from C cache (4 bytes @ 0x20000008)
T43C8 006:605.587   Data:  06 00 00 00
T43C8 006:605.599 - 0.053ms returns 4 (0x4)
T43C8 006:605.609 JLINK_ReadMemEx(0x20000006, 0x1 Bytes, Flags = 0x02000000)
T43C8 006:605.617    -- Read from C cache (1 bytes @ 0x20000006)
T43C8 006:605.627   Data:  00
T43C8 006:605.638 - 0.032ms returns 1 (0x1)
T43C8 006:605.737 JLINK_ReadMemEx(0x20000008, 0x4 Bytes, Flags = 0x02000000)
T43C8 006:605.747    -- Read from C cache (4 bytes @ 0x20000008)
T43C8 006:605.758   Data:  06 00 00 00
T43C8 006:605.769 - 0.036ms returns 4 (0x4)
T43C8 006:605.778 JLINK_ReadMemEx(0x20000006, 0x1 Bytes, Flags = 0x02000000)
T43C8 006:605.786    -- Read from C cache (1 bytes @ 0x20000006)
T43C8 006:605.797   Data:  00
T43C8 006:605.807 - 0.032ms returns 1 (0x1)
T43C8 006:605.824 JLINK_ReadMemEx(0x20000008, 0x4 Bytes, Flags = 0x02000000)
T43C8 006:605.833    -- Read from C cache (4 bytes @ 0x20000008)
T43C8 006:605.844   Data:  06 00 00 00
T43C8 006:605.854 - 0.033ms returns 4 (0x4)
T43C8 006:605.862 JLINK_ReadMemEx(0x20000006, 0x1 Bytes, Flags = 0x02000000)
T43C8 006:605.870    -- Read from C cache (1 bytes @ 0x20000006)
T43C8 006:605.880   Data:  00
T43C8 006:605.891 - 0.032ms returns 1 (0x1)
T43C8 006:611.315 JLINK_ReadMemEx(0x20000008, 0x4 Bytes, Flags = 0x02000000)
T43C8 006:611.335    -- Read from C cache (4 bytes @ 0x20000008)
T43C8 006:611.346   Data:  06 00 00 00
T43C8 006:611.357 - 0.045ms returns 4 (0x4)
T43C8 006:611.399 JLINK_ReadMemEx(0x20000008, 0x4 Bytes, Flags = 0x02000000)
T43C8 006:611.409    -- Read from C cache (4 bytes @ 0x20000008)
T43C8 006:611.419   Data:  06 00 00 00
T43C8 006:611.430 - 0.034ms returns 4 (0x4)
T43C8 006:611.446 JLINK_ReadMemEx(0x20000008, 0x4 Bytes, Flags = 0x02000000)
T43C8 006:611.455    -- Read from C cache (4 bytes @ 0x20000008)
T43C8 006:611.467   Data:  06 00 00 00
T43C8 006:611.480 - 0.038ms returns 4 (0x4)
T1534 006:645.874 JLINK_ReadMemEx(0x080001CC, 0x2 Bytes, Flags = 0x02000000)
T1534 006:645.901    -- Read from C cache (2 bytes @ 0x080001CC)
T1534 006:645.913   Data:  09 48
T1534 006:645.925 - 0.054ms returns 2 (0x2)
T1534 006:645.934 JLINK_HasError()
T1534 006:645.945 JLINK_SetBPEx(Addr = 0x0800093C, Type = 0xFFFFFFF2)
T1534 006:645.969 - 0.028ms returns 0x00000001
T1534 006:645.978 JLINK_HasError()
T1534 006:645.986 JLINK_SetBPEx(Addr = 0x0800070A, Type = 0xFFFFFFF2)
T1534 006:645.994 - 0.011ms returns 0x00000002
T1534 006:646.002 JLINK_HasError()
T1534 006:646.010 JLINK_HasError()
T1534 006:646.019 JLINK_Go()
T1534 006:646.320   CPU_WriteMem(4 bytes @ 0xE0002000)
T1534 006:646.562   CPU_WriteMem(4 bytes @ 0xE0002000)
T1534 006:646.788   CPU_ReadMem(4 bytes @ 0xE0001000)
T1534 006:647.001   CPU_WriteMem(4 bytes @ 0xE0002008)
T1534 006:647.020   CPU_WriteMem(4 bytes @ 0xE000200C)
T1534 006:647.032   CPU_WriteMem(4 bytes @ 0xE0002010)
T1534 006:647.042   CPU_WriteMem(4 bytes @ 0xE0002014)
T1534 006:647.053   CPU_WriteMem(4 bytes @ 0xE0002018)
T1534 006:647.064   CPU_WriteMem(4 bytes @ 0xE000201C)
T1534 006:647.977   CPU_WriteMem(4 bytes @ 0xE0001004)
T1534 006:648.448 - 2.438ms
T1534 006:748.615 JLINK_HasError()
T1534 006:748.653 JLINK_IsHalted()
T1534 006:750.396 - 1.749ms returns TRUE
T1534 006:750.410 JLINK_HasError()
T1534 006:750.421 JLINK_Halt()
T1534 006:750.430 - 0.013ms returns 0x00
T1534 006:750.440 JLINK_IsHalted()
T1534 006:750.448 - 0.013ms returns TRUE
T1534 006:750.459 JLINK_IsHalted()
T1534 006:750.467 - 0.013ms returns TRUE
T1534 006:750.477 JLINK_IsHalted()
T1534 006:750.486 - 0.012ms returns TRUE
T1534 006:750.496 JLINK_HasError()
T1534 006:750.507 JLINK_ReadReg(R15 (PC))
T1534 006:750.518 - 0.015ms returns 0x0800093C
T1534 006:750.528 JLINK_ReadReg(XPSR)
T1534 006:750.537 - 0.013ms returns 0x21000000
T1534 006:750.549 JLINK_HasError()
T1534 006:750.559 JLINK_ClrBPEx(BPHandle = 0x00000001)
T1534 006:750.569 - 0.014ms returns 0x00
T1534 006:750.579 JLINK_HasError()
T1534 006:750.588 JLINK_ClrBPEx(BPHandle = 0x00000002)
T1534 006:750.602 - 0.018ms returns 0x00
T1534 006:750.612 JLINK_HasError()
T1534 006:750.622 JLINK_HasError()
T1534 006:750.632 JLINK_ReadMemU32(0xE000ED30, 0x1 Items)
T1534 006:750.647   CPU_ReadMem(4 bytes @ 0xE000ED30)
T1534 006:750.851   Data:  02 00 00 00
T1534 006:750.866 - 0.238ms returns 1 (0x1)
T1534 006:750.877 JLINK_ReadMemU32(0xE0001028, 0x1 Items)
T1534 006:750.886   CPU_ReadMem(4 bytes @ 0xE0001028)
T1534 006:751.081   Data:  00 00 00 00
T1534 006:751.102   Debug reg: DWT_FUNC[0]
T1534 006:751.115 - 0.242ms returns 1 (0x1)
T1534 006:751.127 JLINK_ReadMemU32(0xE0001038, 0x1 Items)
T1534 006:751.140   CPU_ReadMem(4 bytes @ 0xE0001038)
T1534 006:751.344   Data:  00 02 00 00
T1534 006:751.359   Debug reg: DWT_FUNC[1]
T1534 006:751.371 - 0.248ms returns 1 (0x1)
T1534 006:751.382 JLINK_ReadMemU32(0xE0001048, 0x1 Items)
T1534 006:751.393   CPU_ReadMem(4 bytes @ 0xE0001048)
T1534 006:751.599   Data:  00 00 00 00
T1534 006:751.613   Debug reg: DWT_FUNC[2]
T1534 006:751.625 - 0.247ms returns 1 (0x1)
T1534 006:751.636 JLINK_ReadMemU32(0xE0001058, 0x1 Items)
T1534 006:751.646   CPU_ReadMem(4 bytes @ 0xE0001058)
T1534 006:751.847   Data:  00 00 00 00
T1534 006:751.864   Debug reg: DWT_FUNC[3]
T1534 006:751.875 - 0.242ms returns 1 (0x1)
T1534 006:751.906 JLINK_HasError()
T1534 006:751.916 JLINK_ReadReg(R0)
T1534 006:751.925 - 0.012ms returns 0x200000A0
T1534 006:751.933 JLINK_ReadReg(R1)
T1534 006:751.941 - 0.011ms returns 0x200002A0
T1534 006:751.949 JLINK_ReadReg(R2)
T1534 006:751.956 - 0.011ms returns 0x200002A0
T1534 006:751.965 JLINK_ReadReg(R3)
T1534 006:751.972 - 0.011ms returns 0x200002A0
T1534 006:751.980 JLINK_ReadReg(R4)
T1534 006:751.988 - 0.011ms returns 0x00000000
T1534 006:751.996 JLINK_ReadReg(R5)
T1534 006:752.003 - 0.011ms returns 0x2000003C
T1534 006:752.011 JLINK_ReadReg(R6)
T1534 006:752.019 - 0.011ms returns 0x00000000
T1534 006:752.027 JLINK_ReadReg(R7)
T1534 006:752.034 - 0.011ms returns 0x00000000
T1534 006:752.043 JLINK_ReadReg(R8)
T1534 006:752.050 - 0.011ms returns 0x00000000
T1534 006:752.058 JLINK_ReadReg(R9)
T1534 006:752.065 - 0.010ms returns 0x20000160
T1534 006:752.074 JLINK_ReadReg(R10)
T1534 006:752.081 - 0.011ms returns 0x08000B48
T1534 006:752.089 JLINK_ReadReg(R11)
T1534 006:752.097 - 0.011ms returns 0x00000000
T1534 006:752.105 JLINK_ReadReg(R12)
T1534 006:752.112 - 0.010ms returns 0x2000007C
T1534 006:752.120 JLINK_ReadReg(R13 (SP))
T1534 006:752.128 - 0.011ms returns 0x200006A0
T1534 006:752.136 JLINK_ReadReg(R14)
T1534 006:752.143 - 0.010ms returns 0x080001BB
T1534 006:752.151 JLINK_ReadReg(R15 (PC))
T1534 006:752.159 - 0.011ms returns 0x0800093C
T1534 006:752.167 JLINK_ReadReg(XPSR)
T1534 006:752.174 - 0.011ms returns 0x21000000
T1534 006:752.186 JLINK_ReadReg(MSP)
T1534 006:752.196 - 0.013ms returns 0x200006A0
T1534 006:752.204 JLINK_ReadReg(PSP)
T1534 006:752.211 - 0.010ms returns 0x20001000
T1534 006:752.219 JLINK_ReadReg(CFBP)
T1534 006:752.227 - 0.011ms returns 0x00000000
T43C8 006:761.774 JLINK_ReadMemEx(0x20000008, 0x4 Bytes, Flags = 0x02000000)
T43C8 006:761.795   CPU_ReadMem(64 bytes @ 0x20000000)
T43C8 006:762.311    -- Updating C cache (64 bytes @ 0x20000000)
T43C8 006:762.332    -- Read from C cache (4 bytes @ 0x20000008)
T43C8 006:762.345   Data:  00 00 00 00
T43C8 006:762.358 - 0.588ms returns 4 (0x4)
T43C8 006:769.984 JLINK_ReadMemEx(0x20000008, 0x4 Bytes, Flags = 0x02000000)
T43C8 006:770.001    -- Read from C cache (4 bytes @ 0x20000008)
T43C8 006:770.012   Data:  00 00 00 00
T43C8 006:770.023 - 0.041ms returns 4 (0x4)
T43C8 006:770.032 JLINK_ReadMemEx(0x20000000, 0x1 Bytes, Flags = 0x02000000)
T43C8 006:770.040    -- Read from C cache (1 bytes @ 0x20000000)
T43C8 006:770.051   Data:  00
T43C8 006:770.061 - 0.032ms returns 1 (0x1)
T43C8 006:772.791 JLINK_ReadMemEx(0x20000008, 0x4 Bytes, Flags = 0x02000000)
T43C8 006:772.806    -- Read from C cache (4 bytes @ 0x20000008)
T43C8 006:772.818   Data:  00 00 00 00
T43C8 006:772.828 - 0.040ms returns 4 (0x4)
T43C8 006:775.417 JLINK_ReadMemEx(0x40010800, 0xC Bytes, Flags = 0x02000004)
T43C8 006:775.439   CPU_ReadMem(12 bytes @ 0x40010800)
T43C8 006:775.674   Data:  44 44 44 44 44 44 84 88 00 00 00 00
T43C8 006:775.694 - 0.282ms returns 12 (0xC)
T43C8 006:775.708 JLINK_ReadMemEx(0x4001080C, 0x4 Bytes, Flags = 0x02000004)
T43C8 006:775.722   CPU_ReadMem(4 bytes @ 0x4001080C)
T43C8 006:775.915   Data:  00 A0 00 00
T43C8 006:775.926 - 0.222ms returns 4 (0x4)
T43C8 006:775.936 JLINK_ReadMemEx(0x40010818, 0x4 Bytes, Flags = 0x02000004)
T43C8 006:775.946   CPU_ReadMem(4 bytes @ 0x40010818)
T43C8 006:776.128   Data:  00 00 00 00
T43C8 006:776.139 - 0.206ms returns 4 (0x4)
T43C8 006:776.358 JLINK_ReadMemEx(0x40013800, 0x18 Bytes, Flags = 0x02000004)
T43C8 006:776.371   CPU_ReadMem(24 bytes @ 0x40013800)
T43C8 006:776.641   Data:  00 00 00 00 00 00 00 00 00 00 00 00 00 00 00 00 ...
T43C8 006:776.654 - 0.299ms returns 24 (0x18)
T43C8 006:776.664 JLINK_ReadMemEx(0x40013818, 0x4 Bytes, Flags = 0x02000004)
T43C8 006:776.673   CPU_ReadMem(4 bytes @ 0x40013818)
T43C8 006:776.863   Data:  00 00 00 00
T43C8 006:776.874 - 0.214ms returns 4 (0x4)
T43C8 006:776.998 JLINK_ReadMemEx(0x40000800, 0x10 Bytes, Flags = 0x02000004)
T43C8 006:777.010   CPU_ReadMem(16 bytes @ 0x40000800)
T43C8 006:777.315   Data:  00 00 00 00 00 00 00 00 00 00 00 00 00 00 00 00
T43C8 006:777.326 - 0.332ms returns 16 (0x10)
T43C8 006:777.336 JLINK_ReadMemEx(0x40000810, 0x4 Bytes, Flags = 0x02000004)
T43C8 006:777.345   CPU_ReadMem(4 bytes @ 0x40000810)
T43C8 006:777.527   Data:  00 00 00 00
T43C8 006:777.538 - 0.205ms returns 4 (0x4)
T43C8 006:777.547 JLINK_ReadMemEx(0x40000818, 0x14 Bytes, Flags = 0x02000004)
T43C8 006:777.556   CPU_ReadMem(20 bytes @ 0x40000818)
T43C8 006:777.815   Data:  00 00 00 00 00 00 00 00 00 00 00 00 00 00 00 00 ...
T43C8 006:777.827 - 0.283ms returns 20 (0x14)
T43C8 006:777.836 JLINK_ReadMemEx(0x4000082C, 0x4 Bytes, Flags = 0x02000004)
T43C8 006:777.844   CPU_ReadMem(4 bytes @ 0x4000082C)
T43C8 006:778.037   Data:  00 00 00 00
T43C8 006:778.049 - 0.216ms returns 4 (0x4)
T43C8 006:778.058 JLINK_ReadMemEx(0x40000834, 0xC Bytes, Flags = 0x02000004)
T43C8 006:778.067   CPU_ReadMem(12 bytes @ 0x40000834)
T43C8 006:778.311   Data:  00 00 00 00 00 00 00 00 00 00 00 00
T43C8 006:778.323 - 0.268ms returns 12 (0xC)
T43C8 006:778.332 JLINK_ReadMemEx(0x40000840, 0x4 Bytes, Flags = 0x02000004)
T43C8 006:778.340   CPU_ReadMem(4 bytes @ 0x40000840)
T43C8 006:778.522   Data:  00 00 00 00
T43C8 006:778.533 - 0.204ms returns 4 (0x4)
T43C8 006:778.542 JLINK_ReadMemEx(0x40000848, 0x4 Bytes, Flags = 0x02000004)
T43C8 006:778.551   CPU_ReadMem(4 bytes @ 0x40000848)
T43C8 006:778.733   Data:  00 00 00 00
T43C8 006:778.746 - 0.207ms returns 4 (0x4)
T43C8 006:778.755 JLINK_ReadMemEx(0x4000084C, 0x4 Bytes, Flags = 0x02000004)
T43C8 006:778.822   CPU_ReadMem(4 bytes @ 0x4000084C)
T43C8 006:779.010   Data:  00 00 00 00
T43C8 006:779.030 - 0.278ms returns 4 (0x4)
T43C8 006:779.723 JLINK_ReadMemEx(0x0800093C, 0x3C Bytes, Flags = 0x02000000)
T43C8 006:779.737   CPU_ReadMem(128 bytes @ 0x08000900)
T43C8 006:780.421    -- Updating C cache (128 bytes @ 0x08000900)
T43C8 006:780.433    -- Read from C cache (60 bytes @ 0x0800093C)
T43C8 006:780.445   Data:  FF F7 B6 FF 4F F4 96 40 00 F0 9C F8 FF F7 46 FD ...
T43C8 006:780.456 - 0.735ms returns 60 (0x3C)
T43C8 006:780.465 JLINK_ReadMemEx(0x0800093C, 0x2 Bytes, Flags = 0x02000000)
T43C8 006:780.472    -- Read from C cache (2 bytes @ 0x0800093C)
T43C8 006:780.483   Data:  FF F7
T43C8 006:780.494 - 0.032ms returns 2 (0x2)
T43C8 006:780.502 JLINK_ReadMemEx(0x0800093E, 0x2 Bytes, Flags = 0x02000000)
T43C8 006:780.509    -- Read from C cache (2 bytes @ 0x0800093E)
T43C8 006:780.520   Data:  B6 FF
T43C8 006:780.530 - 0.032ms returns 2 (0x2)
T43C8 006:780.545 JLINK_ReadMemEx(0x08000940, 0x3C Bytes, Flags = 0x02000000)
T43C8 006:780.553    -- Read from C cache (60 bytes @ 0x08000940)
T43C8 006:780.564   Data:  4F F4 96 40 00 F0 9C F8 FF F7 46 FD FF F7 2E FD ...
T43C8 006:780.574 - 0.032ms returns 60 (0x3C)
T43C8 006:780.582 JLINK_ReadMemEx(0x08000940, 0x2 Bytes, Flags = 0x02000000)
T43C8 006:780.590    -- Read from C cache (2 bytes @ 0x08000940)
T43C8 006:780.600   Data:  4F F4
T43C8 006:780.610 - 0.031ms returns 2 (0x2)
T43C8 006:780.620 JLINK_ReadMemEx(0x08000942, 0x2 Bytes, Flags = 0x02000000)
T43C8 006:780.631    -- Read from C cache (2 bytes @ 0x08000942)
T43C8 006:780.642   Data:  96 40
T43C8 006:780.653 - 0.036ms returns 2 (0x2)
T43C8 006:780.663 JLINK_ReadMemEx(0x08000944, 0x3C Bytes, Flags = 0x02000000)
T43C8 006:780.671    -- Read from C cache (60 bytes @ 0x08000944)
T43C8 006:780.682   Data:  00 F0 9C F8 FF F7 46 FD FF F7 2E FD 46 20 46 49 ...
T43C8 006:780.692 - 0.032ms returns 60 (0x3C)
T43C8 006:780.700 JLINK_ReadMemEx(0x08000944, 0x2 Bytes, Flags = 0x02000000)
T43C8 006:780.708    -- Read from C cache (2 bytes @ 0x08000944)
T43C8 006:780.718   Data:  00 F0
T43C8 006:780.729 - 0.032ms returns 2 (0x2)
T43C8 006:780.737 JLINK_ReadMemEx(0x08000946, 0x2 Bytes, Flags = 0x02000000)
T43C8 006:780.744    -- Read from C cache (2 bytes @ 0x08000946)
T43C8 006:780.754   Data:  9C F8
T43C8 006:780.765 - 0.031ms returns 2 (0x2)
T1534 009:584.845 JLINK_ReadMemEx(0x0800093C, 0x2 Bytes, Flags = 0x02000000)
T1534 009:584.883    -- Read from C cache (2 bytes @ 0x0800093C)
T1534 009:584.896   Data:  FF F7
T1534 009:584.909 - 0.068ms returns 2 (0x2)
T1534 009:584.920 JLINK_HasError()
T1534 009:584.931 JLINK_HasError()
T1534 009:584.940 JLINK_Go()
T1534 009:585.179   CPU_ReadMem(4 bytes @ 0xE0001000)
T1534 009:585.397   CPU_WriteMem(4 bytes @ 0xE0002008)
T1534 009:585.412   CPU_WriteMem(4 bytes @ 0xE000200C)
T1534 009:586.023 - 1.088ms
T1534 009:686.279 JLINK_HasError()
T1534 009:686.314 JLINK_IsHalted()
T1534 009:686.542 - 0.233ms returns FALSE
T1534 009:787.366 JLINK_HasError()
T1534 009:787.397 JLINK_IsHalted()
T1534 009:787.614 - 0.223ms returns FALSE
T1534 009:888.472 JLINK_HasError()
T1534 009:888.503 JLINK_IsHalted()
T1534 009:888.717 - 0.226ms returns FALSE
T1534 009:989.550 JLINK_HasError()
T1534 009:989.582 JLINK_IsHalted()
T1534 009:989.793 - 0.216ms returns FALSE
T1534 010:090.643 JLINK_HasError()
T1534 010:090.703 JLINK_IsHalted()
T1534 010:090.939 - 0.248ms returns FALSE
T1534 010:191.734 JLINK_HasError()
T1534 010:191.762 JLINK_HasError()
T1534 010:191.773 JLINK_ReadMemU32(0xE0001004, 0x1 Items)
T1534 010:191.797   CPU_ReadMem(4 bytes @ 0xE0001004)
T1534 010:192.025   Data:  E8 D3 99 02
T1534 010:192.048   Debug reg: DWT_CYCCNT
T1534 010:192.060 - 0.291ms returns 1 (0x1)
T43C8 010:200.903 JLINK_ReadMemEx(0x20000008, 0x4 Bytes, Flags = 0x02000000)
T43C8 010:200.924   CPU_ReadMem(4 bytes @ 0x20000008)
T43C8 010:201.131   Data:  06 00 00 00
T43C8 010:201.151 - 0.252ms returns 4 (0x4)
T43C8 010:212.127 JLINK_ReadMemEx(0x20000008, 0x4 Bytes, Flags = 0x02000000)
T43C8 010:212.151   CPU_ReadMem(4 bytes @ 0x20000008)
T43C8 010:212.357   Data:  06 00 00 00
T43C8 010:212.378 - 0.255ms returns 4 (0x4)
T43C8 010:212.391 JLINK_ReadMemEx(0x20000006, 0x1 Bytes, Flags = 0x02000000)
T43C8 010:212.404   CPU_ReadMem(1 bytes @ 0x20000006)
T43C8 010:212.604   Data:  00
T43C8 010:212.618 - 0.231ms returns 1 (0x1)
T43C8 010:212.636 JLINK_ReadMemEx(0x20000008, 0x4 Bytes, Flags = 0x02000000)
T43C8 010:212.647   CPU_ReadMem(4 bytes @ 0x20000008)
T43C8 010:212.842   Data:  06 00 00 00
T43C8 010:212.860 - 0.228ms returns 4 (0x4)
T43C8 010:217.691 JLINK_ReadMemEx(0x40010800, 0xC Bytes, Flags = 0x02000004)
T43C8 010:217.709   CPU_ReadMem(12 bytes @ 0x40010800)
T43C8 010:217.944   Data:  88 88 88 88 B4 48 84 88 0B 9F 00 00
T43C8 010:217.964 - 0.277ms returns 12 (0xC)
T43C8 010:217.978 JLINK_ReadMemEx(0x4001080C, 0x4 Bytes, Flags = 0x02000004)
T43C8 010:217.991   CPU_ReadMem(4 bytes @ 0x4001080C)
T43C8 010:218.201   Data:  00 A0 00 00
T43C8 010:218.220 - 0.246ms returns 4 (0x4)
T43C8 010:218.233 JLINK_ReadMemEx(0x40010818, 0x4 Bytes, Flags = 0x02000004)
T43C8 010:218.246   CPU_ReadMem(4 bytes @ 0x40010818)
T43C8 010:218.455   Data:  00 00 00 00
T43C8 010:218.472 - 0.242ms returns 4 (0x4)
T43C8 010:224.271 JLINK_ReadMemEx(0x40013800, 0x18 Bytes, Flags = 0x02000004)
T43C8 010:224.289   CPU_ReadMem(24 bytes @ 0x40013800)
T43C8 010:224.576   Data:  00 00 00 00 00 00 00 00 A6 0E 00 00 2C 20 00 00 ...
T43C8 010:224.588 - 0.320ms returns 24 (0x18)
T43C8 010:224.598 JLINK_ReadMemEx(0x40013818, 0x4 Bytes, Flags = 0x02000004)
T43C8 010:224.608   CPU_ReadMem(4 bytes @ 0x40013818)
T43C8 010:224.804   Data:  00 00 00 00
T43C8 010:224.816 - 0.221ms returns 4 (0x4)
T43C8 010:225.112 JLINK_ReadMemEx(0x40000800, 0x10 Bytes, Flags = 0x02000004)
T43C8 010:225.133   CPU_ReadMem(16 bytes @ 0x40000800)
T43C8 010:225.379   Data:  00 00 00 00 00 00 00 00 00 00 00 00 00 00 00 00
T43C8 010:225.394 - 0.285ms returns 16 (0x10)
T43C8 010:225.405 JLINK_ReadMemEx(0x40000810, 0x4 Bytes, Flags = 0x02000004)
T43C8 010:225.415   CPU_ReadMem(4 bytes @ 0x40000810)
T43C8 010:225.608   Data:  00 00 00 00
T43C8 010:225.620 - 0.218ms returns 4 (0x4)
T43C8 010:225.629 JLINK_ReadMemEx(0x40000818, 0x14 Bytes, Flags = 0x02000004)
T43C8 010:225.638   CPU_ReadMem(20 bytes @ 0x40000818)
T43C8 010:225.892   Data:  00 00 00 00 00 00 00 00 00 00 00 00 00 00 00 00 ...
T43C8 010:225.903 - 0.277ms returns 20 (0x14)
T43C8 010:225.913 JLINK_ReadMemEx(0x4000082C, 0x4 Bytes, Flags = 0x02000004)
T43C8 010:225.921   CPU_ReadMem(4 bytes @ 0x4000082C)
T43C8 010:226.110   Data:  00 00 00 00
T43C8 010:226.122 - 0.212ms returns 4 (0x4)
T43C8 010:226.131 JLINK_ReadMemEx(0x40000834, 0xC Bytes, Flags = 0x02000004)
T43C8 010:226.139   CPU_ReadMem(12 bytes @ 0x40000834)
T43C8 010:226.354   Data:  00 00 00 00 00 00 00 00 00 00 00 00
T43C8 010:226.366 - 0.238ms returns 12 (0xC)
T43C8 010:226.375 JLINK_ReadMemEx(0x40000840, 0x4 Bytes, Flags = 0x02000004)
T43C8 010:226.384   CPU_ReadMem(4 bytes @ 0x40000840)
T43C8 010:226.571   Data:  00 00 00 00
T43C8 010:226.583 - 0.211ms returns 4 (0x4)
T43C8 010:226.592 JLINK_ReadMemEx(0x40000848, 0x4 Bytes, Flags = 0x02000004)
T43C8 010:226.600   CPU_ReadMem(4 bytes @ 0x40000848)
T43C8 010:226.795   Data:  00 00 00 00
T43C8 010:226.807 - 0.218ms returns 4 (0x4)
T43C8 010:226.816 JLINK_ReadMemEx(0x4000084C, 0x4 Bytes, Flags = 0x02000004)
T43C8 010:226.825   CPU_ReadMem(4 bytes @ 0x4000084C)
T43C8 010:227.013   Data:  00 00 00 00
T43C8 010:227.025 - 0.212ms returns 4 (0x4)
T1534 010:227.310 JLINK_IsHalted()
T1534 010:227.517 - 0.213ms returns FALSE
T1534 010:327.856 JLINK_HasError()
T1534 010:327.888 JLINK_IsHalted()
T1534 010:328.090 - 0.208ms returns FALSE
T1534 010:428.952 JLINK_HasError()
T1534 010:428.982 JLINK_IsHalted()
T1534 010:429.196 - 0.225ms returns FALSE
T1534 010:530.046 JLINK_HasError()
T1534 010:530.077 JLINK_IsHalted()
T1534 010:530.311 - 0.241ms returns FALSE
T1534 010:631.134 JLINK_HasError()
T1534 010:631.164 JLINK_IsHalted()
T1534 010:631.382 - 0.224ms returns FALSE
T1534 010:732.228 JLINK_HasError()
T1534 010:732.255 JLINK_HasError()
T1534 010:732.266 JLINK_ReadMemU32(0xE0001004, 0x1 Items)
T1534 010:732.288   Data:  E8 D3 99 02
T1534 010:732.303   Debug reg: DWT_CYCCNT
T1534 010:732.315 - 0.053ms returns 1 (0x1)
T43C8 010:740.768 JLINK_ReadMemEx(0x20000008, 0x4 Bytes, Flags = 0x02000000)
T43C8 010:740.792   CPU_ReadMem(4 bytes @ 0x20000008)
T43C8 010:741.010   Data:  06 00 00 00
T43C8 010:741.022 - 0.257ms returns 4 (0x4)
T43C8 010:748.425 JLINK_ReadMemEx(0x20000008, 0x4 Bytes, Flags = 0x02000000)
T43C8 010:748.443   CPU_ReadMem(4 bytes @ 0x20000008)
T43C8 010:748.655   Data:  06 00 00 00
T43C8 010:748.675 - 0.254ms returns 4 (0x4)
T43C8 010:748.688 JLINK_ReadMemEx(0x20000006, 0x1 Bytes, Flags = 0x02000000)
T43C8 010:748.701   CPU_ReadMem(1 bytes @ 0x20000006)
T43C8 010:748.902   Data:  00
T43C8 010:748.916 - 0.232ms returns 1 (0x1)
T43C8 010:748.934 JLINK_ReadMemEx(0x20000008, 0x4 Bytes, Flags = 0x02000000)
T43C8 010:748.946   CPU_ReadMem(4 bytes @ 0x20000008)
T43C8 010:749.138   Data:  06 00 00 00
T43C8 010:749.152 - 0.221ms returns 4 (0x4)
T43C8 010:752.088 JLINK_ReadMemEx(0x40010800, 0xC Bytes, Flags = 0x02000004)
T43C8 010:752.106   CPU_ReadMem(12 bytes @ 0x40010800)
T43C8 010:752.336   Data:  88 88 88 88 B4 48 84 88 0B 9F 00 00
T43C8 010:752.353 - 0.269ms returns 12 (0xC)
T43C8 010:752.365 JLINK_ReadMemEx(0x4001080C, 0x4 Bytes, Flags = 0x02000004)
T43C8 010:752.376   CPU_ReadMem(4 bytes @ 0x4001080C)
T43C8 010:752.577   Data:  00 A0 00 00
T43C8 010:752.594 - 0.233ms returns 4 (0x4)
T43C8 010:752.606 JLINK_ReadMemEx(0x40010818, 0x4 Bytes, Flags = 0x02000004)
T43C8 010:752.616   CPU_ReadMem(4 bytes @ 0x40010818)
T43C8 010:752.810   Data:  00 00 00 00
T43C8 010:752.821 - 0.219ms returns 4 (0x4)
T43C8 010:753.034 JLINK_ReadMemEx(0x40013800, 0x18 Bytes, Flags = 0x02000004)
T43C8 010:753.046   CPU_ReadMem(24 bytes @ 0x40013800)
T43C8 010:753.322   Data:  00 00 00 00 00 00 00 00 A6 0E 00 00 2C 20 00 00 ...
T43C8 010:753.333 - 0.303ms returns 24 (0x18)
T43C8 010:753.343 JLINK_ReadMemEx(0x40013818, 0x4 Bytes, Flags = 0x02000004)
T43C8 010:753.352   CPU_ReadMem(4 bytes @ 0x40013818)
T43C8 010:753.540   Data:  00 00 00 00
T43C8 010:753.551 - 0.211ms returns 4 (0x4)
T43C8 010:753.674 JLINK_ReadMemEx(0x40000800, 0x10 Bytes, Flags = 0x02000004)
T43C8 010:753.686   CPU_ReadMem(16 bytes @ 0x40000800)
T43C8 010:753.919   Data:  00 00 00 00 00 00 00 00 00 00 00 00 00 00 00 00
T43C8 010:753.931 - 0.260ms returns 16 (0x10)
T43C8 010:753.940 JLINK_ReadMemEx(0x40000810, 0x4 Bytes, Flags = 0x02000004)
T43C8 010:753.949   CPU_ReadMem(4 bytes @ 0x40000810)
T43C8 010:754.137   Data:  00 00 00 00
T43C8 010:754.148 - 0.211ms returns 4 (0x4)
T43C8 010:754.158 JLINK_ReadMemEx(0x40000818, 0x14 Bytes, Flags = 0x02000004)
T43C8 010:754.166   CPU_ReadMem(20 bytes @ 0x40000818)
T43C8 010:754.420   Data:  00 00 00 00 00 00 00 00 00 00 00 00 00 00 00 00 ...
T43C8 010:754.432 - 0.277ms returns 20 (0x14)
T43C8 010:754.441 JLINK_ReadMemEx(0x4000082C, 0x4 Bytes, Flags = 0x02000004)
T43C8 010:754.450   CPU_ReadMem(4 bytes @ 0x4000082C)
T43C8 010:754.638   Data:  00 00 00 00
T43C8 010:754.650 - 0.211ms returns 4 (0x4)
T43C8 010:754.659 JLINK_ReadMemEx(0x40000834, 0xC Bytes, Flags = 0x02000004)
T43C8 010:754.667   CPU_ReadMem(12 bytes @ 0x40000834)
T43C8 010:754.954   Data:  00 00 00 00 00 00 00 00 00 00 00 00
T43C8 010:754.975 - 0.321ms returns 12 (0xC)
T43C8 010:754.992 JLINK_ReadMemEx(0x40000840, 0x4 Bytes, Flags = 0x02000004)
T43C8 010:755.005   CPU_ReadMem(4 bytes @ 0x40000840)
T43C8 010:755.205   Data:  00 00 00 00
T43C8 010:755.221 - 0.233ms returns 4 (0x4)
T43C8 010:755.233 JLINK_ReadMemEx(0x40000848, 0x4 Bytes, Flags = 0x02000004)
T43C8 010:755.247   CPU_ReadMem(4 bytes @ 0x40000848)
T43C8 010:755.451   Data:  00 00 00 00
T43C8 010:755.464 - 0.235ms returns 4 (0x4)
T43C8 010:755.476 JLINK_ReadMemEx(0x4000084C, 0x4 Bytes, Flags = 0x02000004)
T43C8 010:755.489   CPU_ReadMem(4 bytes @ 0x4000084C)
T43C8 010:755.742   Data:  00 00 00 00
T43C8 010:755.753 - 0.281ms returns 4 (0x4)
T1534 010:756.022 JLINK_IsHalted()
T1534 010:756.218 - 0.204ms returns FALSE
T1534 010:856.340 JLINK_HasError()
T1534 010:856.369 JLINK_IsHalted()
T1534 010:856.583 - 0.224ms returns FALSE
T1534 010:957.432 JLINK_HasError()
T1534 010:957.459 JLINK_IsHalted()
T1534 010:957.670 - 0.217ms returns FALSE
T1534 011:058.519 JLINK_HasError()
T1534 011:058.546 JLINK_IsHalted()
T1534 011:058.755 - 0.214ms returns FALSE
T1534 011:159.647 JLINK_HasError()
T1534 011:159.683 JLINK_IsHalted()
T1534 011:159.899 - 0.222ms returns FALSE
T1534 011:260.725 JLINK_HasError()
T1534 011:260.758 JLINK_HasError()
T1534 011:260.770 JLINK_ReadMemU32(0xE0001004, 0x1 Items)
T1534 011:260.792   Data:  E8 D3 99 02
T1534 011:260.806   Debug reg: DWT_CYCCNT
T1534 011:260.819 - 0.053ms returns 1 (0x1)
T43C8 011:269.835 JLINK_ReadMemEx(0x20000008, 0x4 Bytes, Flags = 0x02000000)
T43C8 011:269.861   CPU_ReadMem(4 bytes @ 0x20000008)
T43C8 011:270.086   Data:  06 00 00 00
T43C8 011:270.107 - 0.276ms returns 4 (0x4)
T43C8 011:275.787 JLINK_ReadMemEx(0x20000008, 0x4 Bytes, Flags = 0x02000000)
T43C8 011:275.808   CPU_ReadMem(4 bytes @ 0x20000008)
T43C8 011:276.017   Data:  06 00 00 00
T43C8 011:276.031 - 0.249ms returns 4 (0x4)
T43C8 011:276.044 JLINK_ReadMemEx(0x20000006, 0x1 Bytes, Flags = 0x02000000)
T43C8 011:276.055   CPU_ReadMem(1 bytes @ 0x20000006)
T43C8 011:276.307   Data:  00
T43C8 011:276.321 - 0.281ms returns 1 (0x1)
T43C8 011:276.337 JLINK_ReadMemEx(0x20000008, 0x4 Bytes, Flags = 0x02000000)
T43C8 011:276.348   CPU_ReadMem(4 bytes @ 0x20000008)
T43C8 011:276.540   Data:  06 00 00 00
T43C8 011:276.554 - 0.221ms returns 4 (0x4)
T43C8 011:276.578 JLINK_ReadMemEx(0x40010800, 0xC Bytes, Flags = 0x02000004)
T43C8 011:276.589   CPU_ReadMem(12 bytes @ 0x40010800)
T43C8 011:276.811   Data:  88 88 88 88 B4 48 84 88 0B 9F 00 00
T43C8 011:276.825 - 0.251ms returns 12 (0xC)
T43C8 011:276.837 JLINK_ReadMemEx(0x4001080C, 0x4 Bytes, Flags = 0x02000004)
T43C8 011:276.846   CPU_ReadMem(4 bytes @ 0x4001080C)
T43C8 011:277.045   Data:  00 A0 00 00
T43C8 011:277.066 - 0.233ms returns 4 (0x4)
T43C8 011:277.079 JLINK_ReadMemEx(0x40010818, 0x4 Bytes, Flags = 0x02000004)
T43C8 011:277.092   CPU_ReadMem(4 bytes @ 0x40010818)
T43C8 011:277.311   Data:  00 00 00 00
T43C8 011:277.327 - 0.251ms returns 4 (0x4)
T43C8 011:277.540 JLINK_ReadMemEx(0x40013800, 0x18 Bytes, Flags = 0x02000004)
T43C8 011:277.553   CPU_ReadMem(24 bytes @ 0x40013800)
T43C8 011:277.824   Data:  C0 00 00 00 00 00 00 00 A6 0E 00 00 2C 20 00 00 ...
T43C8 011:277.836 - 0.299ms returns 24 (0x18)
T43C8 011:277.846 JLINK_ReadMemEx(0x40013818, 0x4 Bytes, Flags = 0x02000004)
T43C8 011:277.856   CPU_ReadMem(4 bytes @ 0x40013818)
T43C8 011:278.045   Data:  00 00 00 00
T43C8 011:278.057 - 0.214ms returns 4 (0x4)
T43C8 011:278.237 JLINK_ReadMemEx(0x40000800, 0x10 Bytes, Flags = 0x02000004)
T43C8 011:278.249   CPU_ReadMem(16 bytes @ 0x40000800)
T43C8 011:278.492   Data:  00 00 00 00 00 00 00 00 00 00 00 00 00 00 00 00
T43C8 011:278.504 - 0.270ms returns 16 (0x10)
T43C8 011:278.513 JLINK_ReadMemEx(0x40000810, 0x4 Bytes, Flags = 0x02000004)
T43C8 011:278.522   CPU_ReadMem(4 bytes @ 0x40000810)
T43C8 011:278.711   Data:  00 00 00 00
T43C8 011:278.733 - 0.222ms returns 4 (0x4)
T43C8 011:278.742 JLINK_ReadMemEx(0x40000818, 0x14 Bytes, Flags = 0x02000004)
T43C8 011:278.751   CPU_ReadMem(20 bytes @ 0x40000818)
T43C8 011:279.009   Data:  00 00 00 00 00 00 00 00 00 00 00 00 00 00 00 00 ...
T43C8 011:279.021 - 0.282ms returns 20 (0x14)
T43C8 011:279.030 JLINK_ReadMemEx(0x4000082C, 0x4 Bytes, Flags = 0x02000004)
T43C8 011:279.039   CPU_ReadMem(4 bytes @ 0x4000082C)
T43C8 011:279.227   Data:  00 00 00 00
T43C8 011:279.238 - 0.211ms returns 4 (0x4)
T43C8 011:279.247 JLINK_ReadMemEx(0x40000834, 0xC Bytes, Flags = 0x02000004)
T43C8 011:279.256   CPU_ReadMem(12 bytes @ 0x40000834)
T43C8 011:279.477   Data:  00 00 00 00 00 00 00 00 00 00 00 00
T43C8 011:279.494 - 0.250ms returns 12 (0xC)
T43C8 011:279.504 JLINK_ReadMemEx(0x40000840, 0x4 Bytes, Flags = 0x02000004)
T43C8 011:279.512   CPU_ReadMem(4 bytes @ 0x40000840)
T43C8 011:279.699   Data:  00 00 00 00
T43C8 011:279.712 - 0.213ms returns 4 (0x4)
T43C8 011:279.725 JLINK_ReadMemEx(0x40000848, 0x4 Bytes, Flags = 0x02000004)
T43C8 011:279.737   CPU_ReadMem(4 bytes @ 0x40000848)
T43C8 011:279.927   Data:  00 00 00 00
T43C8 011:279.939 - 0.218ms returns 4 (0x4)
T43C8 011:279.949 JLINK_ReadMemEx(0x4000084C, 0x4 Bytes, Flags = 0x02000004)
T43C8 011:279.957   CPU_ReadMem(4 bytes @ 0x4000084C)
T43C8 011:280.145   Data:  00 00 00 00
T43C8 011:280.156 - 0.210ms returns 4 (0x4)
T1534 011:280.417 JLINK_IsHalted()
T1534 011:280.618 - 0.209ms returns FALSE
